
T1938 000:284 SEGGER J-Link V5.12e Log File (0000ms, 0270ms total)
T1938 000:284 DLL Compiled: Apr 29 2016 15:03:58 (0000ms, 0270ms total)
T1938 000:284 Logging started @ 2017-09-18 22:57 (0000ms, 0270ms total)
T1938 000:284 JLINK_SetWarnOutHandler(...) (0000ms, 0270ms total)
T1938 000:284 JLINK_OpenEx(...)
Firmware: J-Link ARM V8 compiled Nov 28 2014 13:44:46
Hardware: V8.00
S/N: 304439649
Feature(s): RDI,FlashDL,FlashBP,JFlash,GDBFULL  returns O.K. (0260ms, 0530ms total)
T1938 000:544 JLINK_SetErrorOutHandler(...) (0000ms, 0530ms total)
T1938 000:544 JLINK_ExecCommand("ProjectFile = "E:\01_XiangWorkstation\02_Profession\01_ARM\02_GitProject\STM32_Programming\LED_Blink\JLinkSettings.ini"", ...)  returns 0x00 (0000ms, 0530ms total)
T1938 000:544 JLINK_ExecCommand("Device = STM32F103C8", ...)Device "STM32F103C8" selected.  returns 0x00 (0000ms, 0530ms total)
T1938 000:544 JLINK_ExecCommand("DisableConnectionTimeout", ...)  returns 0x01 (0000ms, 0530ms total)
T1938 000:544 JLINK_GetHardwareVersion()  returns 0x13880 (0000ms, 0530ms total)
T1938 000:544 JLINK_GetDLLVersion()  returns 51205 (0000ms, 0530ms total)
T1938 000:544 JLINK_GetFirmwareString(...) (0000ms, 0530ms total)
T1938 000:544 JLINK_GetDLLVersion()  returns 51205 (0000ms, 0530ms total)
T1938 000:544 JLINK_GetCompileDateTime() (0000ms, 0530ms total)
T1938 000:544 JLINK_GetFirmwareString(...) (0000ms, 0530ms total)
T1938 000:544 JLINK_GetHardwareVersion()  returns 0x13880 (0000ms, 0530ms total)
T1938 000:544 JLINK_TIF_Select(JLINKARM_TIF_SWD)  returns 0x00 (0001ms, 0531ms total)
T1938 000:545 JLINK_SetSpeed(10000) (0001ms, 0532ms total)
T1938 000:546 JLINK_GetId() >0x108 TIF>Found SWD-DP with ID 0x1BA01477 >0x0D TIF> >0x28 TIF> >0x0D TIF> >0x28 TIF> >0x0D TIF> >0x28 TIF> >0x0D TIF> >0x28 TIF> >0x0D TIF> >0x21 TIF> >0x0D TIF> >0x28 TIF> >0x0D TIF> >0x28 TIF> >0x0D TIF> >0x28 TIF> >0x0D TIF> >0x21 TIF> >0x0D TIF> >0x21 TIF> >0x0D TIF> >0x28 TIF> >0x0D TIF> >0x21 TIF> >0x0D TIF> >0x21 TIF> >0x0D TIF> >0x28 TIF> >0x0D TIF> >0x21 TIF> >0x0D TIF> >0x21 TIF> >0x0D TIF> >0x28 TIF> >0x0D TIF> >0x21 TIF> >0x0D TIF> >0x21 TIF> >0x0D TIF>
 >0x28 TIF> >0x0D TIF> >0x21 TIF> >0x0D TIF> >0x21 TIF> >0x0D TIF> >0x28 TIF> >0x0D TIF> >0x21 TIF> >0x0D TIF> >0x21 TIF> >0x108 TIF>Found SWD-DP with ID 0x1BA01477 >0x0D TIF> >0x28 TIF> >0x0D TIF> >0x28 TIF> >0x0D TIF> >0x28 TIF> >0x0D TIF> >0x28 TIF> >0x0D TIF> >0x21 TIF> >0x0D TIF> >0x28 TIF> >0x0D TIF> >0x28 TIF> >0x0D TIF> >0x21 TIF> >0x0D TIF> >0x21 TIF> >0x0D TIF> >0x21 TIF> >0x0D TIF> >0x28 TIF> >0x0D TIF> >0x28 TIF> >0x0D TIF> >0x28 TIF> >0x0D TIF> >0x21 TIF> >0x0D TIF> >0x21 TIF> >0x0D TIF>
 >0x28 TIF> >0x0D TIF> >0x21 TIF> >0x0D TIF> >0x21 TIF>Found Cortex-M3 r1p1, Little endian. -- CPU_ReadMem(4 bytes @ 0xE000EDF0) -- CPU_ReadMem(4 bytes @ 0xE0002000)FPUnit: 6 code (BP) slots and 2 literal slots -- CPU_ReadMem(4 bytes @ 0xE000EDFC) -- CPU_ReadMem(4 bytes @ 0xE0001000) -- CPU_WriteMem(4 bytes @ 0xE0001000) -- CPU_ReadMem(4 bytes @ 0xE000ED88) -- CPU_WriteMem(4 bytes @ 0xE000ED88) -- CPU_ReadMem(4 bytes @ 0xE000ED88) -- CPU_WriteMem(4 bytes @ 0xE000ED88)CoreSight components:
ROMTbl 0 @ E00FF000 -- CPU_ReadMem(16 bytes @ 0xE00FF000) -- CPU_ReadMem(16 bytes @ 0xE000EFF0) -- CPU_ReadMem(16 bytes @ 0xE000EFE0)ROMTbl 0 [0]: FFF0F000, CID: B105E00D, PID: 001BB000 SCS -- CPU_ReadMem(16 bytes @ 0xE0001FF0) -- CPU_ReadMem(16 bytes @ 0xE0001FE0)ROMTbl 0 [1]: FFF02000, CID: B105E00D, PID: 001BB002 DWT -- CPU_ReadMem(16 bytes @ 0xE0002FF0) -- CPU_ReadMem(16 bytes @ 0xE0002FE0)ROMTbl 0 [2]: FFF03000, CID: B105E00D, PID: 000BB003 FPB -- CPU_ReadMem(16 bytes @ 0xE0000FF0)
 -- CPU_ReadMem(16 bytes @ 0xE0000FE0)ROMTbl 0 [3]: FFF01000, CID: B105E00D, PID: 001BB001 ITM -- CPU_ReadMem(16 bytes @ 0xE00FF010) -- CPU_ReadMem(16 bytes @ 0xE0040FF0) -- CPU_ReadMem(16 bytes @ 0xE0040FE0)ROMTbl 0 [4]: FFF41000, CID: B105900D, PID: 001BB923 TPIU-Lite >0x0D TIF> >0x21 TIF>  returns 0x1BA01477 (0047ms, 0579ms total)
T1938 000:593 JLINK_GetDLLVersion()  returns 51205 (0000ms, 0579ms total)
T1938 000:593 JLINK_CORE_GetFound()  returns 0x30000FF (0001ms, 0580ms total)
T1938 000:594 JLINK_GetDebugInfo(0x100) -- Value=0xE00FF000  returns 0x00 (0000ms, 0580ms total)
T1938 000:594 JLINK_GetDebugInfo(0x100) -- Value=0xE00FF000  returns 0x00 (0000ms, 0580ms total)
T1938 000:594 JLINK_GetDebugInfo(0x101) -- Value=0x00000000  returns 0x00 (0000ms, 0580ms total)
T1938 000:594 JLINK_ReadMem (0xE0041FF0, 0x0010 Bytes, ...) -- CPU is running -- CPU_ReadMem(16 bytes @ 0xE0041FF0) - Data: 00 00 00 00 00 00 00 00 00 00 00 00 00 00 00 00  returns 0x00 (0000ms, 0580ms total)
T1938 000:594 JLINK_GetDebugInfo(0x102) -- Value=0x00000000  returns 0x00 (0000ms, 0580ms total)
T1938 000:594 JLINK_GetDebugInfo(0x103) -- Value=0xE0040000  returns 0x00 (0000ms, 0580ms total)
T1938 000:594 JLINK_GetDebugInfo(0x104) -- Value=0xE0000000  returns 0x00 (0000ms, 0580ms total)
T1938 000:594 JLINK_GetDebugInfo(0x105) -- Value=0xE0001000  returns 0x00 (0000ms, 0580ms total)
T1938 000:594 JLINK_GetDebugInfo(0x106) -- Value=0xE0002000  returns 0x00 (0000ms, 0580ms total)
T1938 000:594 JLINK_GetDebugInfo(0x107) -- Value=0xE000E000  returns 0x00 (0000ms, 0580ms total)
T1938 000:594 JLINK_GetDebugInfo(0x10C) -- Value=0xE000EDF0  returns 0x00 (0000ms, 0580ms total)
T1938 000:594 JLINK_ReadMemU32(0xE000ED00, 0x0001 Items, ...) -- CPU is running -- CPU_ReadMem(4 bytes @ 0xE000ED00) - Data: 31 C2 1F 41  returns 0x01 (0001ms, 0581ms total)
T1938 000:595 JLINK_SetResetType(JLINKARM_RESET_TYPE_NORMAL)  returns JLINKARM_RESET_TYPE_NORMAL (0000ms, 0581ms total)
T1938 000:595 JLINK_Reset() -- CPU is running -- CPU_WriteMem(4 bytes @ 0xE000EDF0) -- CPU is running -- CPU_WriteMem(4 bytes @ 0xE000EDFC) >0x35 TIF> -- CPU is running -- CPU_WriteMem(4 bytes @ 0xE000ED0C) -- CPU is running -- CPU_ReadMem(4 bytes @ 0xE000EDF0) -- CPU is running -- CPU_ReadMem(4 bytes @ 0xE000EDF0) -- CPU is running -- CPU_WriteMem(4 bytes @ 0xE000EDF0) -- CPU is running -- CPU_WriteMem(4 bytes @ 0xE000EDFC) -- CPU is running -- CPU_ReadMem(4 bytes @ 0xE000EDF0)
 -- CPU_WriteMem(4 bytes @ 0xE0002000) -- CPU_ReadMem(4 bytes @ 0xE000EDFC) -- CPU_ReadMem(4 bytes @ 0xE0001000) (0017ms, 0598ms total)
T1938 000:612 JLINK_ReadReg(R15 (PC))  returns 0x08000100 (0000ms, 0598ms total)
T1938 000:612 JLINK_ReadReg(XPSR)  returns 0x01000000 (0000ms, 0598ms total)
T1938 000:612 JLINK_Halt()  returns 0x00 (0000ms, 0598ms total)
T1938 000:612 JLINK_IsHalted()  returns TRUE (0000ms, 0598ms total)
T1938 000:612 JLINK_ReadMemU32(0xE000EDF0, 0x0001 Items, ...) -- CPU_ReadMem(4 bytes @ 0xE000EDF0) - Data: 03 00 03 00  returns 0x01 (0001ms, 0599ms total)
T1938 000:613 JLINK_WriteU32(0xE000EDF0, 0xA05F0003) -- CPU_WriteMem(4 bytes @ 0xE000EDF0)  returns 0x00 (0000ms, 0599ms total)
T1938 000:613 JLINK_WriteU32(0xE000EDFC, 0x01000000) -- CPU_WriteMem(4 bytes @ 0xE000EDFC)  returns 0x00 (0001ms, 0600ms total)
T1938 000:614 JLINK_GetHWStatus(...)  returns 0x00 (0000ms, 0600ms total)
T1938 000:614 JLINK_GetNumBPUnits(Type = 0xFFFFFF00)  returns 0x06 (0000ms, 0600ms total)
T1938 000:614 JLINK_GetNumBPUnits(Type = 0xF0)  returns 0x2000 (0000ms, 0600ms total)
T1938 000:614 JLINK_GetNumWPUnits()  returns 0x04 (0000ms, 0600ms total)
T1938 000:614 JLINK_GetSpeed()  returns 0xFA0 (0000ms, 0600ms total)
T1938 000:614 JLINK_ReadMemU32(0xE000E004, 0x0001 Items, ...) -- CPU_ReadMem(4 bytes @ 0xE000E004) - Data: 01 00 00 00  returns 0x01 (0001ms, 0601ms total)
T1938 000:615 JLINK_ReadMemU32(0xE000E004, 0x0001 Items, ...) -- CPU_ReadMem(4 bytes @ 0xE000E004) - Data: 01 00 00 00  returns 0x01 (0000ms, 0601ms total)
T1938 000:615 JLINK_WriteMem(0xE0001000, 0x001C Bytes, ...) - Data: 01 00 00 00 00 00 00 00 00 00 00 00 00 00 00 00 ... -- CPU_WriteMem(28 bytes @ 0xE0001000)  returns 0x1C (0001ms, 0602ms total)
T1938 000:616 JLINK_ReadMem (0xE0001000, 0x001C Bytes, ...) -- CPU_ReadMem(28 bytes @ 0xE0001000) - Data: 01 00 00 40 00 00 00 00 00 00 00 00 00 00 00 00 ...  returns 0x00 (0001ms, 0603ms total)
T1938 000:617 JLINK_ReadReg(R15 (PC))  returns 0x08000100 (0000ms, 0603ms total)
T1938 000:617 JLINK_ReadReg(XPSR)  returns 0x01000000 (0000ms, 0603ms total)
T1938 000:680 JLINK_SetResetType(JLINKARM_RESET_TYPE_NORMAL)  returns JLINKARM_RESET_TYPE_NORMAL (0000ms, 0603ms total)
T1938 000:680 JLINK_Reset() -- CPU_WriteMem(4 bytes @ 0xE000EDF0) -- CPU_WriteMem(4 bytes @ 0xE000EDFC) >0x35 TIF> -- CPU_WriteMem(4 bytes @ 0xE000ED0C) -- CPU_ReadMem(4 bytes @ 0xE000EDF0) -- CPU_ReadMem(4 bytes @ 0xE000EDF0) -- CPU_WriteMem(4 bytes @ 0xE000EDF0) -- CPU_WriteMem(4 bytes @ 0xE000EDFC) -- CPU is running -- CPU_ReadMem(4 bytes @ 0xE000EDF0) -- CPU_WriteMem(4 bytes @ 0xE0002000) -- CPU_ReadMem(4 bytes @ 0xE000EDFC) -- CPU_ReadMem(4 bytes @ 0xE0001000) (0017ms, 0620ms total)
T1938 000:697 JLINK_ReadReg(R15 (PC))  returns 0x08000100 (0000ms, 0620ms total)
T1938 000:697 JLINK_ReadReg(XPSR)  returns 0x01000000 (0000ms, 0620ms total)
T1938 000:697 JLINK_ReadMem (0x080000EC, 0x003C Bytes, ...) -- CPU_ReadMem(128 bytes @ 0x080000C0) -- Updating C cache (128 bytes @ 0x080000C0) -- Read from C cache (60 bytes @ 0x080000EC) - Data: DF F8 0C D0 00 F0 68 FB 00 48 00 47 55 22 00 08 ...  returns 0x00 (0002ms, 0622ms total)
T1938 000:747 JLINK_ReadMem (0xE000ED04, 0x0004 Bytes, ...) -- CPU_ReadMem(4 bytes @ 0xE000ED04) - Data: 00 00 00 00  returns 0x00 (0000ms, 0622ms total)
T1938 000:747 JLINK_ReadMem (0xE000ED08, 0x0004 Bytes, ...) -- CPU_ReadMem(4 bytes @ 0xE000ED08) - Data: 00 00 00 00  returns 0x00 (0001ms, 0623ms total)
T1938 000:748 JLINK_ReadMem (0xE000ED0C, 0x0004 Bytes, ...) -- CPU_ReadMem(4 bytes @ 0xE000ED0C) - Data: 00 00 05 FA  returns 0x00 (0000ms, 0623ms total)
T1938 000:748 JLINK_ReadMem (0xE000ED18, 0x0004 Bytes, ...) -- CPU_ReadMem(4 bytes @ 0xE000ED18) - Data: 00 00 00 00  returns 0x00 (0001ms, 0624ms total)
T1938 000:749 JLINK_ReadMem (0xE000ED1C, 0x0004 Bytes, ...) -- CPU_ReadMem(4 bytes @ 0xE000ED1C) - Data: 00 00 00 00  returns 0x00 (0001ms, 0625ms total)
T1938 000:750 JLINK_ReadMem (0xE000ED20, 0x0004 Bytes, ...) -- CPU_ReadMem(4 bytes @ 0xE000ED20) - Data: 00 00 00 00  returns 0x00 (0000ms, 0625ms total)
T1938 000:750 JLINK_ReadMem (0xE000ED24, 0x0004 Bytes, ...) -- CPU_ReadMem(4 bytes @ 0xE000ED24) - Data: 00 00 00 00  returns 0x00 (0001ms, 0626ms total)
T1938 000:751 JLINK_ReadMem (0xE000EDFC, 0x0004 Bytes, ...) -- CPU_ReadMem(4 bytes @ 0xE000EDFC) - Data: 00 00 00 01  returns 0x00 (0000ms, 0626ms total)
T1938 000:751 JLINK_ReadMem (0xE000E100, 0x000C Bytes, ...) -- CPU_ReadMem(12 bytes @ 0xE000E100) - Data: 00 00 00 00 00 00 00 00 00 00 00 00  returns 0x00 (0001ms, 0627ms total)
T1938 000:752 JLINK_ReadMem (0xE000E200, 0x000C Bytes, ...) -- CPU_ReadMem(12 bytes @ 0xE000E200) - Data: 00 00 00 00 00 00 00 00 00 00 00 00  returns 0x00 (0000ms, 0627ms total)
T1938 000:752 JLINK_ReadMem (0xE000E300, 0x000C Bytes, ...) -- CPU_ReadMem(12 bytes @ 0xE000E300) - Data: 00 00 00 00 00 00 00 00 00 00 00 00  returns 0x00 (0001ms, 0628ms total)
T1938 000:753 JLINK_ReadMem (0xE000E400, 0x0060 Bytes, ...) -- CPU_ReadMem(96 bytes @ 0xE000E400) - Data: 00 00 00 00 00 00 00 00 00 00 00 00 00 00 00 00 ...  returns 0x00 (0001ms, 0629ms total)
T1938 000:770 JLINK_ReadMem (0x40021018, 0x0004 Bytes, ...) -- CPU_ReadMem(4 bytes @ 0x40021018) - Data: 00 00 00 00  returns 0x00 (0001ms, 0630ms total)
T1938 000:771 JLINK_ReadMem (0x4002100C, 0x0004 Bytes, ...) -- CPU_ReadMem(4 bytes @ 0x4002100C) - Data: 00 00 00 00  returns 0x00 (0000ms, 0630ms total)
T1938 000:771 JLINK_ReadMem (0x40021014, 0x0004 Bytes, ...) -- CPU_ReadMem(4 bytes @ 0x40021014) - Data: 14 00 00 00  returns 0x00 (0001ms, 0631ms total)
T1938 000:791 JLINK_ReadMem (0x40010800, 0x0004 Bytes, ...) -- CPU_ReadMem(4 bytes @ 0x40010800) - Data: 44 44 44 44  returns 0x00 (0001ms, 0632ms total)
T1938 000:792 JLINK_ReadMem (0x40010804, 0x0004 Bytes, ...) -- CPU_ReadMem(4 bytes @ 0x40010804) - Data: 44 44 84 88  returns 0x00 (0001ms, 0633ms total)
T1938 000:793 JLINK_ReadMem (0x40010808, 0x0004 Bytes, ...) -- CPU_ReadMem(4 bytes @ 0x40010808) - Data: 00 00 00 00  returns 0x00 (0000ms, 0633ms total)
T1938 000:793 JLINK_ReadMem (0x4001080C, 0x0004 Bytes, ...) -- CPU_ReadMem(4 bytes @ 0x4001080C) - Data: 00 A0 00 00  returns 0x00 (0001ms, 0634ms total)
T1938 000:794 JLINK_ReadMem (0x40010810, 0x0004 Bytes, ...) -- CPU_ReadMem(4 bytes @ 0x40010810) - Data: 00 00 00 00  returns 0x00 (0000ms, 0634ms total)
T1938 000:794 JLINK_ReadMem (0x40010814, 0x0004 Bytes, ...) -- CPU_ReadMem(4 bytes @ 0x40010814) - Data: 00 00 00 00  returns 0x00 (0001ms, 0635ms total)
T1938 000:795 JLINK_ReadMem (0x40010818, 0x0004 Bytes, ...) -- CPU_ReadMem(4 bytes @ 0x40010818) - Data: 00 00 00 00  returns 0x00 (0000ms, 0635ms total)
T1938 000:795 JLINK_ReadMem (0x40021018, 0x0004 Bytes, ...) -- CPU_ReadMem(4 bytes @ 0x40021018) - Data: 00 00 00 00  returns 0x00 (0001ms, 0636ms total)
T1938 000:796 JLINK_ReadMem (0x4002100C, 0x0004 Bytes, ...) -- CPU_ReadMem(4 bytes @ 0x4002100C) - Data: 00 00 00 00  returns 0x00 (0000ms, 0636ms total)
T1938 000:812 JLINK_ReadMem (0x40002800, 0x0004 Bytes, ...) -- CPU_ReadMem(4 bytes @ 0x40002800) - Data: 00 00 00 00  returns 0x00 (0000ms, 0636ms total)
T1938 000:812 JLINK_ReadMem (0x40002804, 0x0004 Bytes, ...) -- CPU_ReadMem(4 bytes @ 0x40002804) - Data: 20 00 00 00  returns 0x00 (0001ms, 0637ms total)
T1938 000:813 JLINK_ReadMem (0x40002808, 0x0004 Bytes, ...) -- CPU_ReadMem(4 bytes @ 0x40002808) - Data: 00 00 00 00  returns 0x00 (0001ms, 0638ms total)
T1938 000:814 JLINK_ReadMem (0x4000280C, 0x0004 Bytes, ...) -- CPU_ReadMem(4 bytes @ 0x4000280C) - Data: 00 80 00 00  returns 0x00 (0000ms, 0638ms total)
T1938 000:814 JLINK_ReadMem (0x40002810, 0x0004 Bytes, ...) -- CPU_ReadMem(4 bytes @ 0x40002810) - Data: 00 00 00 00  returns 0x00 (0001ms, 0639ms total)
T1938 000:815 JLINK_ReadMem (0x40002814, 0x0004 Bytes, ...) -- CPU_ReadMem(4 bytes @ 0x40002814) - Data: 00 80 00 00  returns 0x00 (0000ms, 0639ms total)
T1938 000:815 JLINK_ReadMem (0x40002818, 0x0004 Bytes, ...) -- CPU_ReadMem(4 bytes @ 0x40002818) - Data: 00 00 00 00  returns 0x00 (0001ms, 0640ms total)
T1938 000:816 JLINK_ReadMem (0x4000281C, 0x0004 Bytes, ...) -- CPU_ReadMem(4 bytes @ 0x4000281C) - Data: 00 00 00 00  returns 0x00 (0000ms, 0640ms total)
T1938 000:816 JLINK_ReadMem (0x40002820, 0x0004 Bytes, ...) -- CPU_ReadMem(4 bytes @ 0x40002820) - Data: FF FF 00 00  returns 0x00 (0001ms, 0641ms total)
T1938 000:817 JLINK_ReadMem (0x40002824, 0x0004 Bytes, ...) -- CPU_ReadMem(4 bytes @ 0x40002824) - Data: FF FF 00 00  returns 0x00 (0000ms, 0641ms total)
T1938 000:817 JLINK_ReadMem (0x40021020, 0x0004 Bytes, ...) -- CPU_ReadMem(4 bytes @ 0x40021020) - Data: 00 00 00 00  returns 0x00 (0001ms, 0642ms total)
T1938 000:827 JLINK_ReadMem (0x40002800, 0x0004 Bytes, ...) -- CPU_ReadMem(4 bytes @ 0x40002800) - Data: 00 00 00 00  returns 0x00 (0001ms, 0643ms total)
T1938 001:360 JLINK_ReadMem (0x20000000, 0x0004 Bytes, ...) -- CPU_ReadMem(64 bytes @ 0x20000000) -- Updating C cache (64 bytes @ 0x20000000) -- Read from C cache (4 bytes @ 0x20000000) - Data: F4 01 00 00  returns 0x00 (0002ms, 0645ms total)
T1938 001:366 JLINK_ReadMem (0x40010C08, 0x0004 Bytes, ...) -- CPU_ReadMem(4 bytes @ 0x40010C08) - Data: 00 00 00 00  returns 0x00 (0000ms, 0645ms total)
T1938 001:367 JLINK_ReadMem (0x40010C08, 0x0004 Bytes, ...) -- CPU_ReadMem(4 bytes @ 0x40010C08) - Data: 00 00 00 00  returns 0x00 (0000ms, 0645ms total)
T1938 001:367 JLINK_ReadMem (0x40010C08, 0x0004 Bytes, ...) -- CPU_ReadMem(4 bytes @ 0x40010C08) - Data: 00 00 00 00  returns 0x00 (0001ms, 0646ms total)
T57F0 001:379 JLINK_SetBPEx(Addr = 0x08002254, Type = 0xFFFFFFF2)  returns 0x00000001 (0000ms, 0646ms total)
T57F0 001:379 JLINK_Go() -- CPU_WriteMem(4 bytes @ 0xE0002000) -- CPU_ReadMem(4 bytes @ 0xE0001000) -- CPU_WriteMem(4 bytes @ 0xE0002008) -- CPU_WriteMem(4 bytes @ 0xE000200C) -- CPU_WriteMem(4 bytes @ 0xE0002010) -- CPU_WriteMem(4 bytes @ 0xE0002014) -- CPU_WriteMem(4 bytes @ 0xE0002018) -- CPU_WriteMem(4 bytes @ 0xE000201C) -- CPU_WriteMem(4 bytes @ 0xE0001004) (0005ms, 0651ms total)
T57F0 001:484 JLINK_IsHalted()  returns TRUE (0002ms, 0653ms total)
T57F0 001:486 JLINK_Halt()  returns 0x00 (0000ms, 0651ms total)
T57F0 001:486 JLINK_IsHalted()  returns TRUE (0000ms, 0651ms total)
T57F0 001:486 JLINK_IsHalted()  returns TRUE (0000ms, 0651ms total)
T57F0 001:486 JLINK_IsHalted()  returns TRUE (0000ms, 0651ms total)
T57F0 001:486 JLINK_ReadReg(R15 (PC))  returns 0x08002254 (0000ms, 0651ms total)
T57F0 001:486 JLINK_ReadReg(XPSR)  returns 0x61000000 (0000ms, 0651ms total)
T57F0 001:486 JLINK_ClrBPEx(BPHandle = 0x00000001)  returns 0x00 (0000ms, 0651ms total)
T57F0 001:486 JLINK_ReadMemU32(0xE000ED30, 0x0001 Items, ...) -- CPU_ReadMem(4 bytes @ 0xE000ED30) - Data: 03 00 00 00  returns 0x01 (0001ms, 0652ms total)
T57F0 001:487 JLINK_ReadMemU32(0xE0001028, 0x0001 Items, ...) -- CPU_ReadMem(4 bytes @ 0xE0001028) - Data: 00 00 00 00  returns 0x01 (0001ms, 0653ms total)
T57F0 001:488 JLINK_ReadMemU32(0xE0001038, 0x0001 Items, ...) -- CPU_ReadMem(4 bytes @ 0xE0001038) - Data: 00 02 00 00  returns 0x01 (0000ms, 0653ms total)
T57F0 001:488 JLINK_ReadMemU32(0xE0001048, 0x0001 Items, ...) -- CPU_ReadMem(4 bytes @ 0xE0001048) - Data: 00 00 00 00  returns 0x01 (0001ms, 0654ms total)
T57F0 001:489 JLINK_ReadMemU32(0xE0001058, 0x0001 Items, ...) -- CPU_ReadMem(4 bytes @ 0xE0001058) - Data: 00 00 00 00  returns 0x01 (0000ms, 0654ms total)
T57F0 001:489 JLINK_ReadReg(R0)  returns 0x08002255 (0000ms, 0654ms total)
T57F0 001:489 JLINK_ReadReg(R1)  returns 0x200017C8 (0000ms, 0654ms total)
T57F0 001:489 JLINK_ReadReg(R2)  returns 0x00000000 (0000ms, 0654ms total)
T57F0 001:489 JLINK_ReadReg(R3)  returns 0x08001975 (0000ms, 0654ms total)
T57F0 001:489 JLINK_ReadReg(R4)  returns 0x080025B4 (0000ms, 0654ms total)
T57F0 001:489 JLINK_ReadReg(R5)  returns 0x080025B4 (0000ms, 0654ms total)
T57F0 001:489 JLINK_ReadReg(R6)  returns 0x00000000 (0000ms, 0654ms total)
T57F0 001:489 JLINK_ReadReg(R7)  returns 0x00000000 (0000ms, 0654ms total)
T57F0 001:489 JLINK_ReadReg(R8)  returns 0x40F7E728 (0000ms, 0654ms total)
T57F0 001:489 JLINK_ReadReg(R9)  returns 0x3FB6B1A8 (0000ms, 0654ms total)
T57F0 001:489 JLINK_ReadReg(R10)  returns 0x00000000 (0000ms, 0654ms total)
T57F0 001:489 JLINK_ReadReg(R11)  returns 0x3F104000 (0000ms, 0654ms total)
T57F0 001:489 JLINK_ReadReg(R12)  returns 0x08001EF8 (0000ms, 0654ms total)
T57F0 001:489 JLINK_ReadReg(R13 (SP))  returns 0x200017C8 (0000ms, 0654ms total)
T57F0 001:489 JLINK_ReadReg(R14)  returns 0x080007E1 (0000ms, 0654ms total)
T57F0 001:489 JLINK_ReadReg(R15 (PC))  returns 0x08002254 (0000ms, 0654ms total)
T57F0 001:489 JLINK_ReadReg(XPSR)  returns 0x61000000 (0000ms, 0654ms total)
T57F0 001:489 JLINK_ReadReg(MSP)  returns 0x200017C8 (0000ms, 0654ms total)
T57F0 001:489 JLINK_ReadReg(PSP)  returns 0x20000800 (0000ms, 0654ms total)
T57F0 001:489 JLINK_ReadReg(CFBP)  returns 0x00000000 (0000ms, 0654ms total)
T1938 001:490 JLINK_ReadMem (0x00000000, 0x0004 Bytes, ...) -- CPU_ReadMem(4 bytes @ 0x00000004) -- CPU_ReadMem(64 bytes @ 0x08000000) -- Updating C cache (64 bytes @ 0x08000000) -- Read from C cache (4 bytes @ 0x08000000) - Data: C8 17 00 20  returns 0x00 (0002ms, 0656ms total)
T1938 001:492 JLINK_ReadMemU32(0xE0001004, 0x0001 Items, ...) -- CPU_ReadMem(4 bytes @ 0xE0001004) - Data: FF 3E 00 00  returns 0x01 (0001ms, 0657ms total)
T1938 001:493 JLINK_ReadMem (0x20000000, 0x0004 Bytes, ...) -- CPU_ReadMem(64 bytes @ 0x20000000) -- Updating C cache (64 bytes @ 0x20000000) -- Read from C cache (4 bytes @ 0x20000000) - Data: F4 01 00 00  returns 0x00 (0001ms, 0658ms total)
T1938 001:494 JLINK_ReadMem (0x40010C08, 0x0004 Bytes, ...) -- CPU_ReadMem(4 bytes @ 0x40010C08) - Data: 00 00 00 00  returns 0x00 (0001ms, 0659ms total)
T1938 001:496 JLINK_ReadMem (0xE000ED04, 0x0004 Bytes, ...) -- CPU_ReadMem(4 bytes @ 0xE000ED04) - Data: 00 00 00 00  returns 0x00 (0000ms, 0659ms total)
T1938 001:496 JLINK_ReadMem (0xE000ED08, 0x0004 Bytes, ...) -- CPU_ReadMem(4 bytes @ 0xE000ED08) - Data: 00 00 00 08  returns 0x00 (0001ms, 0660ms total)
T1938 001:497 JLINK_ReadMem (0xE000ED0C, 0x0004 Bytes, ...) -- CPU_ReadMem(4 bytes @ 0xE000ED0C) - Data: 00 00 05 FA  returns 0x00 (0000ms, 0660ms total)
T1938 001:497 JLINK_ReadMem (0xE000ED18, 0x0004 Bytes, ...) -- CPU_ReadMem(4 bytes @ 0xE000ED18) - Data: 00 00 00 00  returns 0x00 (0001ms, 0661ms total)
T1938 001:498 JLINK_ReadMem (0xE000ED1C, 0x0004 Bytes, ...) -- CPU_ReadMem(4 bytes @ 0xE000ED1C) - Data: 00 00 00 00  returns 0x00 (0000ms, 0661ms total)
T1938 001:498 JLINK_ReadMem (0xE000ED20, 0x0004 Bytes, ...) -- CPU_ReadMem(4 bytes @ 0xE000ED20) - Data: 00 00 00 00  returns 0x00 (0001ms, 0662ms total)
T1938 001:499 JLINK_ReadMem (0xE000ED24, 0x0004 Bytes, ...) -- CPU_ReadMem(4 bytes @ 0xE000ED24) - Data: 00 00 00 00  returns 0x00 (0000ms, 0662ms total)
T1938 001:499 JLINK_ReadMem (0xE000EDFC, 0x0004 Bytes, ...) - Data: 00 00 00 01  returns 0x00 (0000ms, 0662ms total)
T1938 001:499 JLINK_ReadMem (0xE000E100, 0x000C Bytes, ...) -- CPU_ReadMem(12 bytes @ 0xE000E100) - Data: 00 00 00 00 00 00 00 00 00 00 00 00  returns 0x00 (0001ms, 0663ms total)
T1938 001:500 JLINK_ReadMem (0xE000E200, 0x000C Bytes, ...) -- CPU_ReadMem(12 bytes @ 0xE000E200) - Data: 00 00 00 00 00 00 00 00 00 00 00 00  returns 0x00 (0001ms, 0664ms total)
T1938 001:501 JLINK_ReadMem (0xE000E300, 0x000C Bytes, ...) -- CPU_ReadMem(12 bytes @ 0xE000E300) - Data: 00 00 00 00 00 00 00 00 00 00 00 00  returns 0x00 (0000ms, 0664ms total)
T1938 001:501 JLINK_ReadMem (0xE000E400, 0x0060 Bytes, ...) -- CPU_ReadMem(96 bytes @ 0xE000E400) - Data: 00 00 00 00 00 00 00 00 00 00 00 00 00 00 00 00 ...  returns 0x00 (0001ms, 0665ms total)
T1938 001:502 JLINK_ReadMem (0x40021018, 0x0004 Bytes, ...) -- CPU_ReadMem(4 bytes @ 0x40021018) - Data: 00 00 00 00  returns 0x00 (0001ms, 0666ms total)
T1938 001:503 JLINK_ReadMem (0x4002100C, 0x0004 Bytes, ...) -- CPU_ReadMem(4 bytes @ 0x4002100C) - Data: 00 00 00 00  returns 0x00 (0000ms, 0666ms total)
T1938 001:503 JLINK_ReadMem (0x40021014, 0x0004 Bytes, ...) -- CPU_ReadMem(4 bytes @ 0x40021014) - Data: 14 00 00 00  returns 0x00 (0001ms, 0667ms total)
T1938 001:504 JLINK_ReadMem (0x40010800, 0x0004 Bytes, ...) -- CPU_ReadMem(4 bytes @ 0x40010800) - Data: 44 44 44 44  returns 0x00 (0000ms, 0667ms total)
T1938 001:504 JLINK_ReadMem (0x40010804, 0x0004 Bytes, ...) -- CPU_ReadMem(4 bytes @ 0x40010804) - Data: 44 44 84 88  returns 0x00 (0001ms, 0668ms total)
T1938 001:505 JLINK_ReadMem (0x40010808, 0x0004 Bytes, ...) -- CPU_ReadMem(4 bytes @ 0x40010808) - Data: 00 00 00 00  returns 0x00 (0000ms, 0668ms total)
T1938 001:505 JLINK_ReadMem (0x4001080C, 0x0004 Bytes, ...) -- CPU_ReadMem(4 bytes @ 0x4001080C) - Data: 00 A0 00 00  returns 0x00 (0001ms, 0669ms total)
T1938 001:506 JLINK_ReadMem (0x40010810, 0x0004 Bytes, ...) -- CPU_ReadMem(4 bytes @ 0x40010810) - Data: 00 00 00 00  returns 0x00 (0000ms, 0669ms total)
T1938 001:506 JLINK_ReadMem (0x40010814, 0x0004 Bytes, ...) -- CPU_ReadMem(4 bytes @ 0x40010814) - Data: 00 00 00 00  returns 0x00 (0001ms, 0670ms total)
T1938 001:507 JLINK_ReadMem (0x40010818, 0x0004 Bytes, ...) -- CPU_ReadMem(4 bytes @ 0x40010818) - Data: 00 00 00 00  returns 0x00 (0000ms, 0670ms total)
T1938 001:507 JLINK_ReadMem (0x40021018, 0x0004 Bytes, ...) -- CPU_ReadMem(4 bytes @ 0x40021018) - Data: 00 00 00 00  returns 0x00 (0001ms, 0671ms total)
T1938 001:508 JLINK_ReadMem (0x4002100C, 0x0004 Bytes, ...) -- CPU_ReadMem(4 bytes @ 0x4002100C) - Data: 00 00 00 00  returns 0x00 (0000ms, 0671ms total)
T1938 001:508 JLINK_ReadMem (0x40002800, 0x0004 Bytes, ...) -- CPU_ReadMem(4 bytes @ 0x40002800) - Data: 00 00 00 00  returns 0x00 (0001ms, 0672ms total)
T1938 001:509 JLINK_ReadMem (0x40002804, 0x0004 Bytes, ...) -- CPU_ReadMem(4 bytes @ 0x40002804) - Data: 20 00 00 00  returns 0x00 (0000ms, 0672ms total)
T1938 001:509 JLINK_ReadMem (0x40002808, 0x0004 Bytes, ...) -- CPU_ReadMem(4 bytes @ 0x40002808) - Data: 00 00 00 00  returns 0x00 (0001ms, 0673ms total)
T1938 001:510 JLINK_ReadMem (0x4000280C, 0x0004 Bytes, ...) -- CPU_ReadMem(4 bytes @ 0x4000280C) - Data: 00 80 00 00  returns 0x00 (0000ms, 0673ms total)
T1938 001:510 JLINK_ReadMem (0x40002810, 0x0004 Bytes, ...) -- CPU_ReadMem(4 bytes @ 0x40002810) - Data: 00 00 00 00  returns 0x00 (0001ms, 0674ms total)
T1938 001:511 JLINK_ReadMem (0x40002814, 0x0004 Bytes, ...) -- CPU_ReadMem(4 bytes @ 0x40002814) - Data: 00 80 00 00  returns 0x00 (0000ms, 0674ms total)
T1938 001:511 JLINK_ReadMem (0x40002818, 0x0004 Bytes, ...) -- CPU_ReadMem(4 bytes @ 0x40002818) - Data: 00 00 00 00  returns 0x00 (0001ms, 0675ms total)
T1938 001:512 JLINK_ReadMem (0x4000281C, 0x0004 Bytes, ...) -- CPU_ReadMem(4 bytes @ 0x4000281C) - Data: 00 00 00 00  returns 0x00 (0000ms, 0675ms total)
T1938 001:512 JLINK_ReadMem (0x40002820, 0x0004 Bytes, ...) -- CPU_ReadMem(4 bytes @ 0x40002820) - Data: FF FF 00 00  returns 0x00 (0001ms, 0676ms total)
T1938 001:513 JLINK_ReadMem (0x40002824, 0x0004 Bytes, ...) -- CPU_ReadMem(4 bytes @ 0x40002824) - Data: FF FF 00 00  returns 0x00 (0000ms, 0676ms total)
T1938 001:513 JLINK_ReadMem (0x40021020, 0x0004 Bytes, ...) -- CPU_ReadMem(4 bytes @ 0x40021020) - Data: 00 00 00 00  returns 0x00 (0001ms, 0677ms total)
T1938 001:514 JLINK_ReadMem (0x08002154, 0x003C Bytes, ...) -- CPU_ReadMem(128 bytes @ 0x08002140) -- Updating C cache (128 bytes @ 0x08002140) -- Read from C cache (60 bytes @ 0x08002154) - Data: 00 28 07 DB DD E9 03 01 88 42 03 DD 00 98 40 5C ...  returns 0x00 (0002ms, 0679ms total)
T1938 001:516 JLINK_ReadMem (0x08002190, 0x003C Bytes, ...) -- CPU_ReadMem(64 bytes @ 0x080021C0) -- Updating C cache (64 bytes @ 0x080021C0) -- Read from C cache (60 bytes @ 0x08002190) - Data: AA F1 01 0A DD DC 05 E0 17 F8 01 0B 5A 46 17 99 ...  returns 0x00 (0000ms, 0679ms total)
T1938 001:516 JLINK_ReadMem (0x080021CC, 0x003C Bytes, ...) -- CPU_ReadMem(64 bytes @ 0x08002200) -- Updating C cache (64 bytes @ 0x08002200) -- Read from C cache (60 bytes @ 0x080021CC) - Data: 1E 46 17 46 88 04 04 D4 05 E0 39 46 20 20 B0 47 ...  returns 0x00 (0001ms, 0680ms total)
T1938 001:517 JLINK_ReadMem (0x08002208, 0x003C Bytes, ...) -- CPU_ReadMem(64 bytes @ 0x08002240) -- Updating C cache (64 bytes @ 0x08002240) -- Read from C cache (60 bytes @ 0x08002208) - Data: B0 47 6D 1C 64 1E F9 D5 28 46 BD E8 F0 81 01 46 ...  returns 0x00 (0001ms, 0681ms total)
T1938 001:518 JLINK_ReadMem (0x08002244, 0x003C Bytes, ...) -- Read from C cache (60 bytes @ 0x08002244) - Data: FF F7 FF FA 01 28 F9 D1 20 46 70 BD 00 38 01 40 ...  returns 0x00 (0000ms, 0681ms total)
T57F0 003:088 JLINK_Step() -- Read from C cache (2 bytes @ 0x08002254) -- CPU_ReadMem(4 bytes @ 0xE000ED18) -- CPU_WriteMem(4 bytes @ 0xE000ED18) -- CPU_ReadMem(4 bytes @ 0xE000ED18) -- CPU_WriteMem(4 bytes @ 0xE000ED18) -- CPU_WriteMem(24 bytes @ 0x200017B0) -- Simulated  returns 0x00 (0004ms, 0685ms total)
T57F0 003:092 JLINK_ReadReg(R15 (PC))  returns 0x08002256 (0000ms, 0685ms total)
T57F0 003:092 JLINK_ReadReg(XPSR)  returns 0x61000000 (0000ms, 0685ms total)
T57F0 003:092 JLINK_ReadReg(R0)  returns 0x08002255 (0000ms, 0685ms total)
T57F0 003:092 JLINK_ReadReg(R1)  returns 0x200017C8 (0000ms, 0685ms total)
T57F0 003:092 JLINK_ReadReg(R2)  returns 0x00000000 (0000ms, 0685ms total)
T57F0 003:092 JLINK_ReadReg(R3)  returns 0x08001975 (0000ms, 0685ms total)
T57F0 003:092 JLINK_ReadReg(R4)  returns 0x080025B4 (0000ms, 0685ms total)
T57F0 003:092 JLINK_ReadReg(R5)  returns 0x080025B4 (0000ms, 0685ms total)
T57F0 003:092 JLINK_ReadReg(R6)  returns 0x00000000 (0000ms, 0685ms total)
T57F0 003:092 JLINK_ReadReg(R7)  returns 0x00000000 (0000ms, 0685ms total)
T57F0 003:092 JLINK_ReadReg(R8)  returns 0x40F7E728 (0000ms, 0685ms total)
T57F0 003:092 JLINK_ReadReg(R9)  returns 0x3FB6B1A8 (0000ms, 0685ms total)
T57F0 003:092 JLINK_ReadReg(R10)  returns 0x00000000 (0000ms, 0685ms total)
T57F0 003:092 JLINK_ReadReg(R11)  returns 0x3F104000 (0000ms, 0685ms total)
T57F0 003:092 JLINK_ReadReg(R12)  returns 0x08001EF8 (0000ms, 0685ms total)
T57F0 003:092 JLINK_ReadReg(R13 (SP))  returns 0x200017B0 (0000ms, 0685ms total)
T57F0 003:092 JLINK_ReadReg(R14)  returns 0x080007E1 (0000ms, 0685ms total)
T57F0 003:092 JLINK_ReadReg(R15 (PC))  returns 0x08002256 (0000ms, 0685ms total)
T57F0 003:092 JLINK_ReadReg(XPSR)  returns 0x61000000 (0000ms, 0685ms total)
T57F0 003:092 JLINK_ReadReg(MSP)  returns 0x200017B0 (0000ms, 0685ms total)
T57F0 003:092 JLINK_ReadReg(PSP)  returns 0x20000800 (0000ms, 0685ms total)
T57F0 003:092 JLINK_ReadReg(CFBP)  returns 0x00000000 (0000ms, 0685ms total)
T1938 003:092 JLINK_ReadMem (0x200017C4, 0x0004 Bytes, ...) -- CPU_ReadMem(64 bytes @ 0x200017C0) -- Updating C cache (64 bytes @ 0x200017C0) -- Read from C cache (4 bytes @ 0x200017C4) - Data: E1 07 00 08  returns 0x00 (0001ms, 0686ms total)
T1938 003:093 JLINK_ReadMem (0x00000000, 0x0004 Bytes, ...) -- Read from C cache (4 bytes @ 0x08000000) - Data: C8 17 00 20  returns 0x00 (0000ms, 0686ms total)
T1938 003:093 JLINK_ReadMemU32(0xE0001004, 0x0001 Items, ...) - Data: FF 3E 00 00  returns 0x01 (0000ms, 0686ms total)
T1938 003:093 JLINK_ReadMem (0x20000000, 0x0004 Bytes, ...) -- Read from C cache (4 bytes @ 0x20000000) - Data: F4 01 00 00  returns 0x00 (0000ms, 0686ms total)
T1938 003:094 JLINK_ReadMem (0x40010C08, 0x0004 Bytes, ...) -- CPU_ReadMem(4 bytes @ 0x40010C08) - Data: 00 00 00 00  returns 0x00 (0000ms, 0686ms total)
T1938 003:095 JLINK_ReadMem (0xE000ED04, 0x0004 Bytes, ...) -- CPU_ReadMem(4 bytes @ 0xE000ED04) - Data: 00 00 00 00  returns 0x00 (0001ms, 0687ms total)
T1938 003:096 JLINK_ReadMem (0xE000ED08, 0x0004 Bytes, ...) -- CPU_ReadMem(4 bytes @ 0xE000ED08) - Data: 00 00 00 08  returns 0x00 (0000ms, 0687ms total)
T1938 003:096 JLINK_ReadMem (0xE000ED0C, 0x0004 Bytes, ...) -- CPU_ReadMem(4 bytes @ 0xE000ED0C) - Data: 00 00 05 FA  returns 0x00 (0001ms, 0688ms total)
T1938 003:097 JLINK_ReadMem (0xE000ED18, 0x0004 Bytes, ...) -- CPU_ReadMem(4 bytes @ 0xE000ED18) - Data: 00 00 00 00  returns 0x00 (0000ms, 0688ms total)
T1938 003:097 JLINK_ReadMem (0xE000ED1C, 0x0004 Bytes, ...) -- CPU_ReadMem(4 bytes @ 0xE000ED1C) - Data: 00 00 00 00  returns 0x00 (0001ms, 0689ms total)
T1938 003:098 JLINK_ReadMem (0xE000ED20, 0x0004 Bytes, ...) -- CPU_ReadMem(4 bytes @ 0xE000ED20) - Data: 00 00 00 00  returns 0x00 (0000ms, 0689ms total)
T1938 003:098 JLINK_ReadMem (0xE000ED24, 0x0004 Bytes, ...) -- CPU_ReadMem(4 bytes @ 0xE000ED24) - Data: 00 00 00 00  returns 0x00 (0001ms, 0690ms total)
T1938 003:099 JLINK_ReadMem (0xE000EDFC, 0x0004 Bytes, ...) - Data: 00 00 00 01  returns 0x00 (0000ms, 0690ms total)
T1938 003:099 JLINK_ReadMem (0xE000E100, 0x000C Bytes, ...) -- CPU_ReadMem(12 bytes @ 0xE000E100) - Data: 00 00 00 00 00 00 00 00 00 00 00 00  returns 0x00 (0000ms, 0690ms total)
T1938 003:099 JLINK_ReadMem (0xE000E200, 0x000C Bytes, ...) -- CPU_ReadMem(12 bytes @ 0xE000E200) - Data: 00 00 00 00 00 00 00 00 00 00 00 00  returns 0x00 (0001ms, 0691ms total)
T1938 003:100 JLINK_ReadMem (0xE000E300, 0x000C Bytes, ...) -- CPU_ReadMem(12 bytes @ 0xE000E300) - Data: 00 00 00 00 00 00 00 00 00 00 00 00  returns 0x00 (0000ms, 0691ms total)
T1938 003:100 JLINK_ReadMem (0xE000E400, 0x0060 Bytes, ...) -- CPU_ReadMem(96 bytes @ 0xE000E400) - Data: 00 00 00 00 00 00 00 00 00 00 00 00 00 00 00 00 ...  returns 0x00 (0001ms, 0692ms total)
T1938 003:101 JLINK_ReadMem (0x40021018, 0x0004 Bytes, ...) -- CPU_ReadMem(4 bytes @ 0x40021018) - Data: 00 00 00 00  returns 0x00 (0001ms, 0693ms total)
T1938 003:102 JLINK_ReadMem (0x4002100C, 0x0004 Bytes, ...) -- CPU_ReadMem(4 bytes @ 0x4002100C) - Data: 00 00 00 00  returns 0x00 (0001ms, 0694ms total)
T1938 003:103 JLINK_ReadMem (0x40021014, 0x0004 Bytes, ...) -- CPU_ReadMem(4 bytes @ 0x40021014) - Data: 14 00 00 00  returns 0x00 (0000ms, 0694ms total)
T1938 003:103 JLINK_ReadMem (0x40010800, 0x0004 Bytes, ...) -- CPU_ReadMem(4 bytes @ 0x40010800) - Data: 44 44 44 44  returns 0x00 (0001ms, 0695ms total)
T1938 003:104 JLINK_ReadMem (0x40010804, 0x0004 Bytes, ...) -- CPU_ReadMem(4 bytes @ 0x40010804) - Data: 44 44 84 88  returns 0x00 (0000ms, 0695ms total)
T1938 003:104 JLINK_ReadMem (0x40010808, 0x0004 Bytes, ...) -- CPU_ReadMem(4 bytes @ 0x40010808) - Data: 00 00 00 00  returns 0x00 (0001ms, 0696ms total)
T1938 003:105 JLINK_ReadMem (0x4001080C, 0x0004 Bytes, ...) -- CPU_ReadMem(4 bytes @ 0x4001080C) - Data: 00 A0 00 00  returns 0x00 (0000ms, 0696ms total)
T1938 003:105 JLINK_ReadMem (0x40010810, 0x0004 Bytes, ...) -- CPU_ReadMem(4 bytes @ 0x40010810) - Data: 00 00 00 00  returns 0x00 (0001ms, 0697ms total)
T1938 003:106 JLINK_ReadMem (0x40010814, 0x0004 Bytes, ...) -- CPU_ReadMem(4 bytes @ 0x40010814) - Data: 00 00 00 00  returns 0x00 (0000ms, 0697ms total)
T1938 003:106 JLINK_ReadMem (0x40010818, 0x0004 Bytes, ...) -- CPU_ReadMem(4 bytes @ 0x40010818) - Data: 00 00 00 00  returns 0x00 (0001ms, 0698ms total)
T1938 003:107 JLINK_ReadMem (0x40021018, 0x0004 Bytes, ...) -- CPU_ReadMem(4 bytes @ 0x40021018) - Data: 00 00 00 00  returns 0x00 (0000ms, 0698ms total)
T1938 003:107 JLINK_ReadMem (0x4002100C, 0x0004 Bytes, ...) -- CPU_ReadMem(4 bytes @ 0x4002100C) - Data: 00 00 00 00  returns 0x00 (0001ms, 0699ms total)
T1938 003:108 JLINK_ReadMem (0x40002800, 0x0004 Bytes, ...) -- CPU_ReadMem(4 bytes @ 0x40002800) - Data: 00 00 00 00  returns 0x00 (0000ms, 0699ms total)
T1938 003:108 JLINK_ReadMem (0x40002804, 0x0004 Bytes, ...) -- CPU_ReadMem(4 bytes @ 0x40002804) - Data: 20 00 00 00  returns 0x00 (0001ms, 0700ms total)
T1938 003:109 JLINK_ReadMem (0x40002808, 0x0004 Bytes, ...) -- CPU_ReadMem(4 bytes @ 0x40002808) - Data: 00 00 00 00  returns 0x00 (0000ms, 0700ms total)
T1938 003:109 JLINK_ReadMem (0x4000280C, 0x0004 Bytes, ...) -- CPU_ReadMem(4 bytes @ 0x4000280C) - Data: 00 80 00 00  returns 0x00 (0001ms, 0701ms total)
T1938 003:110 JLINK_ReadMem (0x40002810, 0x0004 Bytes, ...) -- CPU_ReadMem(4 bytes @ 0x40002810) - Data: 00 00 00 00  returns 0x00 (0000ms, 0701ms total)
T1938 003:110 JLINK_ReadMem (0x40002814, 0x0004 Bytes, ...) -- CPU_ReadMem(4 bytes @ 0x40002814) - Data: 00 80 00 00  returns 0x00 (0001ms, 0702ms total)
T1938 003:111 JLINK_ReadMem (0x40002818, 0x0004 Bytes, ...) -- CPU_ReadMem(4 bytes @ 0x40002818) - Data: 00 00 00 00  returns 0x00 (0000ms, 0702ms total)
T1938 003:111 JLINK_ReadMem (0x4000281C, 0x0004 Bytes, ...) -- CPU_ReadMem(4 bytes @ 0x4000281C) - Data: 00 00 00 00  returns 0x00 (0001ms, 0703ms total)
T1938 003:112 JLINK_ReadMem (0x40002820, 0x0004 Bytes, ...) -- CPU_ReadMem(4 bytes @ 0x40002820) - Data: FF FF 00 00  returns 0x00 (0000ms, 0703ms total)
T1938 003:112 JLINK_ReadMem (0x40002824, 0x0004 Bytes, ...) -- CPU_ReadMem(4 bytes @ 0x40002824) - Data: FF FF 00 00  returns 0x00 (0001ms, 0704ms total)
T1938 003:113 JLINK_ReadMem (0x40021020, 0x0004 Bytes, ...) -- CPU_ReadMem(4 bytes @ 0x40021020) - Data: 00 00 00 00  returns 0x00 (0000ms, 0704ms total)
T1938 003:114 JLINK_ReadMem (0x0800224C, 0x003C Bytes, ...) -- CPU_ReadMem(64 bytes @ 0x08002280) -- Updating C cache (64 bytes @ 0x08002280) -- Read from C cache (60 bytes @ 0x0800224C) - Data: 20 46 70 BD 00 38 01 40 1F B5 0B 24 FE F7 2A FF ...  returns 0x00 (0001ms, 0705ms total)
T57F0 003:384 JLINK_Step() -- Read from C cache (2 bytes @ 0x08002256) -- Simulated  returns 0x00 (0000ms, 0705ms total)
T57F0 003:384 JLINK_ReadReg(R15 (PC))  returns 0x08002258 (0000ms, 0705ms total)
T57F0 003:384 JLINK_ReadReg(XPSR)  returns 0x21000000 (0000ms, 0705ms total)
T57F0 003:384 JLINK_ReadReg(R0)  returns 0x08002255 (0000ms, 0705ms total)
T57F0 003:384 JLINK_ReadReg(R1)  returns 0x200017C8 (0000ms, 0705ms total)
T57F0 003:384 JLINK_ReadReg(R2)  returns 0x00000000 (0001ms, 0706ms total)
T57F0 003:385 JLINK_ReadReg(R3)  returns 0x08001975 (0000ms, 0706ms total)
T57F0 003:385 JLINK_ReadReg(R4)  returns 0x0000000B (0000ms, 0706ms total)
T57F0 003:385 JLINK_ReadReg(R5)  returns 0x080025B4 (0000ms, 0706ms total)
T57F0 003:385 JLINK_ReadReg(R6)  returns 0x00000000 (0000ms, 0706ms total)
T57F0 003:385 JLINK_ReadReg(R7)  returns 0x00000000 (0000ms, 0706ms total)
T57F0 003:385 JLINK_ReadReg(R8)  returns 0x40F7E728 (0000ms, 0706ms total)
T57F0 003:385 JLINK_ReadReg(R9)  returns 0x3FB6B1A8 (0000ms, 0706ms total)
T57F0 003:385 JLINK_ReadReg(R10)  returns 0x00000000 (0000ms, 0706ms total)
T57F0 003:385 JLINK_ReadReg(R11)  returns 0x3F104000 (0000ms, 0706ms total)
T57F0 003:385 JLINK_ReadReg(R12)  returns 0x08001EF8 (0000ms, 0706ms total)
T57F0 003:385 JLINK_ReadReg(R13 (SP))  returns 0x200017B0 (0000ms, 0706ms total)
T57F0 003:385 JLINK_ReadReg(R14)  returns 0x080007E1 (0000ms, 0706ms total)
T57F0 003:385 JLINK_ReadReg(R15 (PC))  returns 0x08002258 (0000ms, 0706ms total)
T57F0 003:385 JLINK_ReadReg(XPSR)  returns 0x21000000 (0000ms, 0706ms total)
T57F0 003:385 JLINK_ReadReg(MSP)  returns 0x200017B0 (0000ms, 0706ms total)
T57F0 003:385 JLINK_ReadReg(PSP)  returns 0x20000800 (0000ms, 0706ms total)
T57F0 003:385 JLINK_ReadReg(CFBP)  returns 0x00000000 (0000ms, 0706ms total)
T1938 003:385 JLINK_ReadMem (0x200017C4, 0x0004 Bytes, ...) -- Read from C cache (4 bytes @ 0x200017C4) - Data: E1 07 00 08  returns 0x00 (0000ms, 0706ms total)
T1938 003:385 JLINK_ReadMem (0x00000000, 0x0004 Bytes, ...) -- Read from C cache (4 bytes @ 0x08000000) - Data: C8 17 00 20  returns 0x00 (0000ms, 0706ms total)
T1938 003:385 JLINK_ReadMemU32(0xE0001004, 0x0001 Items, ...) - Data: FF 3E 00 00  returns 0x01 (0000ms, 0706ms total)
T1938 003:385 JLINK_ReadMem (0x20000000, 0x0004 Bytes, ...) -- Read from C cache (4 bytes @ 0x20000000) - Data: F4 01 00 00  returns 0x00 (0000ms, 0706ms total)
T1938 003:385 JLINK_ReadMem (0x40010C08, 0x0004 Bytes, ...) -- CPU_ReadMem(4 bytes @ 0x40010C08) - Data: 00 00 00 00  returns 0x00 (0001ms, 0707ms total)
T1938 003:387 JLINK_ReadMem (0xE000ED04, 0x0004 Bytes, ...) -- CPU_ReadMem(4 bytes @ 0xE000ED04) - Data: 00 00 00 00  returns 0x00 (0000ms, 0707ms total)
T1938 003:387 JLINK_ReadMem (0xE000ED08, 0x0004 Bytes, ...) -- CPU_ReadMem(4 bytes @ 0xE000ED08) - Data: 00 00 00 08  returns 0x00 (0001ms, 0708ms total)
T1938 003:388 JLINK_ReadMem (0xE000ED0C, 0x0004 Bytes, ...) -- CPU_ReadMem(4 bytes @ 0xE000ED0C) - Data: 00 00 05 FA  returns 0x00 (0000ms, 0708ms total)
T1938 003:388 JLINK_ReadMem (0xE000ED18, 0x0004 Bytes, ...) -- CPU_ReadMem(4 bytes @ 0xE000ED18) - Data: 00 00 00 00  returns 0x00 (0001ms, 0709ms total)
T1938 003:389 JLINK_ReadMem (0xE000ED1C, 0x0004 Bytes, ...) -- CPU_ReadMem(4 bytes @ 0xE000ED1C) - Data: 00 00 00 00  returns 0x00 (0000ms, 0709ms total)
T1938 003:389 JLINK_ReadMem (0xE000ED20, 0x0004 Bytes, ...) -- CPU_ReadMem(4 bytes @ 0xE000ED20) - Data: 00 00 00 00  returns 0x00 (0001ms, 0710ms total)
T1938 003:390 JLINK_ReadMem (0xE000ED24, 0x0004 Bytes, ...) -- CPU_ReadMem(4 bytes @ 0xE000ED24) - Data: 00 00 00 00  returns 0x00 (0000ms, 0710ms total)
T1938 003:390 JLINK_ReadMem (0xE000EDFC, 0x0004 Bytes, ...) - Data: 00 00 00 01  returns 0x00 (0000ms, 0710ms total)
T1938 003:390 JLINK_ReadMem (0xE000E100, 0x000C Bytes, ...) -- CPU_ReadMem(12 bytes @ 0xE000E100) - Data: 00 00 00 00 00 00 00 00 00 00 00 00  returns 0x00 (0001ms, 0711ms total)
T1938 003:391 JLINK_ReadMem (0xE000E200, 0x000C Bytes, ...) -- CPU_ReadMem(12 bytes @ 0xE000E200) - Data: 00 00 00 00 00 00 00 00 00 00 00 00  returns 0x00 (0001ms, 0712ms total)
T1938 003:392 JLINK_ReadMem (0xE000E300, 0x000C Bytes, ...) -- CPU_ReadMem(12 bytes @ 0xE000E300) - Data: 00 00 00 00 00 00 00 00 00 00 00 00  returns 0x00 (0000ms, 0712ms total)
T1938 003:392 JLINK_ReadMem (0xE000E400, 0x0060 Bytes, ...) -- CPU_ReadMem(96 bytes @ 0xE000E400) - Data: 00 00 00 00 00 00 00 00 00 00 00 00 00 00 00 00 ...  returns 0x00 (0001ms, 0713ms total)
T1938 003:393 JLINK_ReadMem (0x40021018, 0x0004 Bytes, ...) -- CPU_ReadMem(4 bytes @ 0x40021018) - Data: 00 00 00 00  returns 0x00 (0001ms, 0714ms total)
T1938 003:394 JLINK_ReadMem (0x4002100C, 0x0004 Bytes, ...) -- CPU_ReadMem(4 bytes @ 0x4002100C) - Data: 00 00 00 00  returns 0x00 (0000ms, 0714ms total)
T1938 003:394 JLINK_ReadMem (0x40021014, 0x0004 Bytes, ...) -- CPU_ReadMem(4 bytes @ 0x40021014) - Data: 14 00 00 00  returns 0x00 (0001ms, 0715ms total)
T1938 003:395 JLINK_ReadMem (0x40010800, 0x0004 Bytes, ...) -- CPU_ReadMem(4 bytes @ 0x40010800) - Data: 44 44 44 44  returns 0x00 (0000ms, 0715ms total)
T1938 003:395 JLINK_ReadMem (0x40010804, 0x0004 Bytes, ...) -- CPU_ReadMem(4 bytes @ 0x40010804) - Data: 44 44 84 88  returns 0x00 (0001ms, 0716ms total)
T1938 003:396 JLINK_ReadMem (0x40010808, 0x0004 Bytes, ...) -- CPU_ReadMem(4 bytes @ 0x40010808) - Data: 00 00 00 00  returns 0x00 (0000ms, 0716ms total)
T1938 003:396 JLINK_ReadMem (0x4001080C, 0x0004 Bytes, ...) -- CPU_ReadMem(4 bytes @ 0x4001080C) - Data: 00 A0 00 00  returns 0x00 (0001ms, 0717ms total)
T1938 003:397 JLINK_ReadMem (0x40010810, 0x0004 Bytes, ...) -- CPU_ReadMem(4 bytes @ 0x40010810) - Data: 00 00 00 00  returns 0x00 (0000ms, 0717ms total)
T1938 003:397 JLINK_ReadMem (0x40010814, 0x0004 Bytes, ...) -- CPU_ReadMem(4 bytes @ 0x40010814) - Data: 00 00 00 00  returns 0x00 (0001ms, 0718ms total)
T1938 003:398 JLINK_ReadMem (0x40010818, 0x0004 Bytes, ...) -- CPU_ReadMem(4 bytes @ 0x40010818) - Data: 00 00 00 00  returns 0x00 (0000ms, 0718ms total)
T1938 003:398 JLINK_ReadMem (0x40021018, 0x0004 Bytes, ...) -- CPU_ReadMem(4 bytes @ 0x40021018) - Data: 00 00 00 00  returns 0x00 (0001ms, 0719ms total)
T1938 003:399 JLINK_ReadMem (0x4002100C, 0x0004 Bytes, ...) -- CPU_ReadMem(4 bytes @ 0x4002100C) - Data: 00 00 00 00  returns 0x00 (0000ms, 0719ms total)
T1938 003:399 JLINK_ReadMem (0x40002800, 0x0004 Bytes, ...) -- CPU_ReadMem(4 bytes @ 0x40002800) - Data: 00 00 00 00  returns 0x00 (0001ms, 0720ms total)
T1938 003:400 JLINK_ReadMem (0x40002804, 0x0004 Bytes, ...) -- CPU_ReadMem(4 bytes @ 0x40002804) - Data: 20 00 00 00  returns 0x00 (0001ms, 0721ms total)
T1938 003:401 JLINK_ReadMem (0x40002808, 0x0004 Bytes, ...) -- CPU_ReadMem(4 bytes @ 0x40002808) - Data: 00 00 00 00  returns 0x00 (0000ms, 0721ms total)
T1938 003:401 JLINK_ReadMem (0x4000280C, 0x0004 Bytes, ...) -- CPU_ReadMem(4 bytes @ 0x4000280C) - Data: 00 80 00 00  returns 0x00 (0001ms, 0722ms total)
T1938 003:402 JLINK_ReadMem (0x40002810, 0x0004 Bytes, ...) -- CPU_ReadMem(4 bytes @ 0x40002810) - Data: 00 00 00 00  returns 0x00 (0000ms, 0722ms total)
T1938 003:402 JLINK_ReadMem (0x40002814, 0x0004 Bytes, ...) -- CPU_ReadMem(4 bytes @ 0x40002814) - Data: 00 80 00 00  returns 0x00 (0001ms, 0723ms total)
T1938 003:403 JLINK_ReadMem (0x40002818, 0x0004 Bytes, ...) -- CPU_ReadMem(4 bytes @ 0x40002818) - Data: 00 00 00 00  returns 0x00 (0000ms, 0723ms total)
T1938 003:403 JLINK_ReadMem (0x4000281C, 0x0004 Bytes, ...) -- CPU_ReadMem(4 bytes @ 0x4000281C) - Data: 00 00 00 00  returns 0x00 (0001ms, 0724ms total)
T1938 003:404 JLINK_ReadMem (0x40002820, 0x0004 Bytes, ...) -- CPU_ReadMem(4 bytes @ 0x40002820) - Data: FF FF 00 00  returns 0x00 (0000ms, 0724ms total)
T1938 003:404 JLINK_ReadMem (0x40002824, 0x0004 Bytes, ...) -- CPU_ReadMem(4 bytes @ 0x40002824) - Data: FF FF 00 00  returns 0x00 (0001ms, 0725ms total)
T1938 003:405 JLINK_ReadMem (0x40021020, 0x0004 Bytes, ...) -- CPU_ReadMem(4 bytes @ 0x40021020) - Data: 00 00 00 00  returns 0x00 (0000ms, 0725ms total)
T1938 003:406 JLINK_ReadMem (0x0800224C, 0x003C Bytes, ...) -- Read from C cache (60 bytes @ 0x0800224C) - Data: 20 46 70 BD 00 38 01 40 1F B5 0B 24 FE F7 2A FF ...  returns 0x00 (0000ms, 0725ms total)
T57F0 003:720 JLINK_SetBPEx(Addr = 0x0800225C, Type = 0xFFFFFFF2)  returns 0x00000002 (0000ms, 0725ms total)
T57F0 003:720 JLINK_Go() -- CPU_WriteMem(4 bytes @ 0xE0002000) -- CPU_ReadMem(4 bytes @ 0xE0001000) -- CPU_WriteMem(4 bytes @ 0xE0002008) -- CPU_WriteMem(4 bytes @ 0xE0001004) (0004ms, 0729ms total)
T57F0 003:824 JLINK_IsHalted()  returns TRUE (0002ms, 0731ms total)
T57F0 003:826 JLINK_Halt()  returns 0x00 (0000ms, 0729ms total)
T57F0 003:826 JLINK_IsHalted()  returns TRUE (0000ms, 0729ms total)
T57F0 003:826 JLINK_IsHalted()  returns TRUE (0000ms, 0729ms total)
T57F0 003:826 JLINK_IsHalted()  returns TRUE (0000ms, 0729ms total)
T57F0 003:826 JLINK_ReadReg(R15 (PC))  returns 0x0800225C (0000ms, 0729ms total)
T57F0 003:826 JLINK_ReadReg(XPSR)  returns 0x81000000 (0000ms, 0729ms total)
T57F0 003:826 JLINK_ClrBPEx(BPHandle = 0x00000002)  returns 0x00 (0000ms, 0729ms total)
T57F0 003:826 JLINK_ReadMemU32(0xE000ED30, 0x0001 Items, ...) -- CPU_ReadMem(4 bytes @ 0xE000ED30) - Data: 03 00 00 00  returns 0x01 (0001ms, 0730ms total)
T57F0 003:827 JLINK_ReadMemU32(0xE0001028, 0x0001 Items, ...) -- CPU_ReadMem(4 bytes @ 0xE0001028) - Data: 00 00 00 00  returns 0x01 (0000ms, 0730ms total)
T57F0 003:827 JLINK_ReadMemU32(0xE0001038, 0x0001 Items, ...) -- CPU_ReadMem(4 bytes @ 0xE0001038) - Data: 00 02 00 00  returns 0x01 (0001ms, 0731ms total)
T57F0 003:828 JLINK_ReadMemU32(0xE0001048, 0x0001 Items, ...) -- CPU_ReadMem(4 bytes @ 0xE0001048) - Data: 00 00 00 00  returns 0x01 (0001ms, 0732ms total)
T57F0 003:829 JLINK_ReadMemU32(0xE0001058, 0x0001 Items, ...) -- CPU_ReadMem(4 bytes @ 0xE0001058) - Data: 00 00 00 00  returns 0x01 (0000ms, 0732ms total)
T57F0 003:829 JLINK_ReadReg(R0)  returns 0x40010800 (0000ms, 0732ms total)
T57F0 003:829 JLINK_ReadReg(R1)  returns 0x00000001 (0000ms, 0732ms total)
T57F0 003:829 JLINK_ReadReg(R2)  returns 0x40010800 (0000ms, 0732ms total)
T57F0 003:829 JLINK_ReadReg(R3)  returns 0x14030001 (0000ms, 0732ms total)
T57F0 003:829 JLINK_ReadReg(R4)  returns 0x0000000B (0000ms, 0732ms total)
T57F0 003:829 JLINK_ReadReg(R5)  returns 0x080025B4 (0000ms, 0732ms total)
T57F0 003:829 JLINK_ReadReg(R6)  returns 0x00000000 (0000ms, 0732ms total)
T57F0 003:829 JLINK_ReadReg(R7)  returns 0x00000000 (0000ms, 0732ms total)
T57F0 003:829 JLINK_ReadReg(R8)  returns 0x40F7E728 (0000ms, 0732ms total)
T57F0 003:829 JLINK_ReadReg(R9)  returns 0x3FB6B1A8 (0000ms, 0732ms total)
T57F0 003:829 JLINK_ReadReg(R10)  returns 0x00000000 (0000ms, 0732ms total)
T57F0 003:829 JLINK_ReadReg(R11)  returns 0x3F104000 (0000ms, 0732ms total)
T57F0 003:829 JLINK_ReadReg(R12)  returns 0x00000001 (0000ms, 0732ms total)
T57F0 003:829 JLINK_ReadReg(R13 (SP))  returns 0x200017B0 (0000ms, 0732ms total)
T57F0 003:829 JLINK_ReadReg(R14)  returns 0x080010F9 (0000ms, 0732ms total)
T57F0 003:829 JLINK_ReadReg(R15 (PC))  returns 0x0800225C (0000ms, 0732ms total)
T57F0 003:829 JLINK_ReadReg(XPSR)  returns 0x81000000 (0000ms, 0732ms total)
T57F0 003:829 JLINK_ReadReg(MSP)  returns 0x200017B0 (0000ms, 0732ms total)
T57F0 003:829 JLINK_ReadReg(PSP)  returns 0x20000800 (0000ms, 0732ms total)
T57F0 003:829 JLINK_ReadReg(CFBP)  returns 0x00000000 (0000ms, 0732ms total)
T1938 003:830 JLINK_ReadMem (0x200017C4, 0x0004 Bytes, ...) -- CPU_ReadMem(64 bytes @ 0x200017C0) -- Updating C cache (64 bytes @ 0x200017C0) -- Read from C cache (4 bytes @ 0x200017C4) - Data: E1 07 00 08  returns 0x00 (0001ms, 0733ms total)
T1938 003:831 JLINK_ReadMem (0x00000000, 0x0004 Bytes, ...) -- CPU_ReadMem(4 bytes @ 0x00000004) -- CPU_ReadMem(64 bytes @ 0x08000000) -- Updating C cache (64 bytes @ 0x08000000) -- Read from C cache (4 bytes @ 0x08000000) - Data: C8 17 00 20  returns 0x00 (0001ms, 0734ms total)
T1938 003:832 JLINK_ReadMemU32(0xE0001004, 0x0001 Items, ...) -- CPU_ReadMem(4 bytes @ 0xE0001004) - Data: 1A 42 00 00  returns 0x01 (0001ms, 0735ms total)
T1938 003:833 JLINK_ReadMem (0x20000000, 0x0004 Bytes, ...) -- CPU_ReadMem(64 bytes @ 0x20000000) -- Updating C cache (64 bytes @ 0x20000000) -- Read from C cache (4 bytes @ 0x20000000) - Data: F4 01 00 00  returns 0x00 (0001ms, 0736ms total)
T1938 003:834 JLINK_ReadMem (0x40010C08, 0x0004 Bytes, ...) -- CPU_ReadMem(4 bytes @ 0x40010C08) - Data: F3 FF 00 00  returns 0x00 (0000ms, 0736ms total)
T1938 003:835 JLINK_ReadMem (0xE000ED04, 0x0004 Bytes, ...) -- CPU_ReadMem(4 bytes @ 0xE000ED04) - Data: 00 00 00 00  returns 0x00 (0001ms, 0737ms total)
T1938 003:836 JLINK_ReadMem (0xE000ED08, 0x0004 Bytes, ...) -- CPU_ReadMem(4 bytes @ 0xE000ED08) - Data: 00 00 00 08  returns 0x00 (0001ms, 0738ms total)
T1938 003:837 JLINK_ReadMem (0xE000ED0C, 0x0004 Bytes, ...) -- CPU_ReadMem(4 bytes @ 0xE000ED0C) - Data: 00 00 05 FA  returns 0x00 (0000ms, 0738ms total)
T1938 003:837 JLINK_ReadMem (0xE000ED18, 0x0004 Bytes, ...) -- CPU_ReadMem(4 bytes @ 0xE000ED18) - Data: 00 00 00 00  returns 0x00 (0001ms, 0739ms total)
T1938 003:838 JLINK_ReadMem (0xE000ED1C, 0x0004 Bytes, ...) -- CPU_ReadMem(4 bytes @ 0xE000ED1C) - Data: 00 00 00 00  returns 0x00 (0000ms, 0739ms total)
T1938 003:838 JLINK_ReadMem (0xE000ED20, 0x0004 Bytes, ...) -- CPU_ReadMem(4 bytes @ 0xE000ED20) - Data: 00 00 00 00  returns 0x00 (0001ms, 0740ms total)
T1938 003:839 JLINK_ReadMem (0xE000ED24, 0x0004 Bytes, ...) -- CPU_ReadMem(4 bytes @ 0xE000ED24) - Data: 00 00 00 00  returns 0x00 (0000ms, 0740ms total)
T1938 003:839 JLINK_ReadMem (0xE000EDFC, 0x0004 Bytes, ...) - Data: 00 00 00 01  returns 0x00 (0000ms, 0740ms total)
T1938 003:839 JLINK_ReadMem (0xE000E100, 0x000C Bytes, ...) -- CPU_ReadMem(12 bytes @ 0xE000E100) - Data: 00 00 00 00 00 00 00 00 00 00 00 00  returns 0x00 (0001ms, 0741ms total)
T1938 003:840 JLINK_ReadMem (0xE000E200, 0x000C Bytes, ...) -- CPU_ReadMem(12 bytes @ 0xE000E200) - Data: 00 00 00 00 00 00 00 00 00 00 00 00  returns 0x00 (0000ms, 0741ms total)
T1938 003:840 JLINK_ReadMem (0xE000E300, 0x000C Bytes, ...) -- CPU_ReadMem(12 bytes @ 0xE000E300) - Data: 00 00 00 00 00 00 00 00 00 00 00 00  returns 0x00 (0001ms, 0742ms total)
T1938 003:841 JLINK_ReadMem (0xE000E400, 0x0060 Bytes, ...) -- CPU_ReadMem(96 bytes @ 0xE000E400) - Data: 00 00 00 00 00 00 00 00 00 00 00 00 00 00 00 00 ...  returns 0x00 (0001ms, 0743ms total)
T1938 003:842 JLINK_ReadMem (0x40021018, 0x0004 Bytes, ...) -- CPU_ReadMem(4 bytes @ 0x40021018) - Data: 0C 00 00 00  returns 0x00 (0000ms, 0743ms total)
T1938 003:842 JLINK_ReadMem (0x4002100C, 0x0004 Bytes, ...) -- CPU_ReadMem(4 bytes @ 0x4002100C) - Data: 00 00 00 00  returns 0x00 (0001ms, 0744ms total)
